
T3D88 000:323 SEGGER J-Link V4.96d Log File (0000ms, 0262ms total)
T3D88 000:323 DLL Compiled: Jan 29 2015 11:45:37 (0001ms, 0263ms total)
T3D88 000:323 Logging started @ 2023-03-02 22:58 (0001ms, 0263ms total)
T3D88 000:324 JLINK_SetWarnOutHandler(...) (0000ms, 0263ms total)
T3D88 000:324 JLINK_OpenEx(...)
Firmware: J-Link ARM-OB STM32 compiled Aug 22 2012 19:52:04
Hardware: V7.00
S/N: 20090930
Feature(s): RDI,FlashDL,FlashBP,JFlash,GDBFull  returns O.K. (0264ms, 0527ms total)
T3D88 000:588 JLINK_SetErrorOutHandler(...) (0000ms, 0527ms total)
T3D88 000:588 JLINK_ExecCommand("ProjectFile = "E:\Workspace\stm32\STM32F407VET6\smart_system\USER\JLinkSettings.ini"", ...)  returns 0x00 (0000ms, 0527ms total)
T3D88 000:594 JLINK_ExecCommand("Device = STM32F407VE", ...)Device "STM32F407VE" selected.  returns 0x00 (0005ms, 0533ms total)
T3D88 000:600 JLINK_ExecCommand("DisableConnectionTimeout", ...)  returns 0x01 (0000ms, 0533ms total)
T3D88 000:600 JLINK_GetHardwareVersion()  returns 0x11170 (0000ms, 0533ms total)
T3D88 000:600 JLINK_GetDLLVersion()  returns 49604 (0000ms, 0533ms total)
T3D88 000:600 JLINK_GetFirmwareString(...) (0000ms, 0533ms total)
T3D88 000:614 JLINK_GetDLLVersion()  returns 49604 (0000ms, 0533ms total)
T3D88 000:614 JLINK_GetCompileDateTime() (0000ms, 0533ms total)
T3D88 000:628 JLINK_GetFirmwareString(...) (0000ms, 0533ms total)
T3D88 000:645 JLINK_GetHardwareVersion()  returns 0x11170 (0000ms, 0533ms total)
T3D88 000:675 JLINK_TIF_Select(JLINKARM_TIF_SWD)  returns 0x00 (0001ms, 0534ms total)
T3D88 000:676 JLINK_SetSpeed(20000) (0000ms, 0534ms total)
T3D88 000:676 JLINK_GetId() >0x108 TIF>Found SWD-DP with ID 0x2BA01477 >0x0D TIF> >0x28 TIF> >0x0D TIF> >0x28 TIF> >0x0D TIF> >0x21 TIF> >0x0D TIF> >0x28 TIF> >0x0D TIF> >0x28 TIF> >0x0D TIF> >0x28 TIF> >0x0D TIF> >0x21 TIF> >0x0D TIF> >0x21 TIF> >0x0D TIF> >0x28 TIF> >0x0D TIF> >0x21 TIF> >0x0D TIF> >0x21 TIF> >0x0D TIF> >0x28 TIF> >0x0D TIF> >0x21 TIF> >0x0D TIF> >0x21 TIF> >0x108 TIF>Found SWD-DP with ID 0x2BA01477 >0x0D TIF> >0x21 TIF> >0x0D TIF> >0x28 TIF> >0x0D TIF> >0x28 TIF> >0x0D TIF> >0x21 TIF>
 >0x0D TIF> >0x28 TIF> >0x0D TIF> >0x21 TIF> >0x0D TIF> >0x21 TIF> >0x0D TIF> >0x21 TIF> >0x0D TIF> >0x21 TIF> >0x0D TIF> >0x28 TIF> >0x0D TIF> >0x28 TIF> >0x0D TIF> >0x21 TIF> >0x0D TIF> >0x28 TIF> >0x0D TIF> >0x28 TIF> >0x0D TIF> >0x28 TIF> >0x0D TIF> >0x21 TIF> >0x0D TIF> >0x21 TIF> >0x0D TIF> >0x28 TIF> >0x0D TIF> >0x21 TIF> >0x0D TIF> >0x21 TIF>Found Cortex-M4 r0p1, Little endian. -- CPU_WriteMem(4 bytes @ 0xE0002000) -- CPU_ReadMem(4 bytes @ 0xE000EDF0) -- CPU_ReadMem(4 bytes @ 0xE0002000)
FPUnit: 6 code (BP) slots and 2 literal slots -- CPU_ReadMem(4 bytes @ 0xE000EDFC) -- CPU_ReadMem(4 bytes @ 0xE0001000) -- CPU_WriteMem(4 bytes @ 0xE0001000) -- CPU_ReadMem(4 bytes @ 0xE000ED88) -- CPU_WriteMem(4 bytes @ 0xE000ED88) -- CPU_ReadMem(4 bytes @ 0xE000ED88) -- CPU_WriteMem(4 bytes @ 0xE000ED88) -- CPU_ReadMem(4 bytes @ 0xE00FF010)TPIU fitted. -- CPU_ReadMem(4 bytes @ 0xE00FF014)ETM fitted. -- CPU_ReadMem(4 bytes @ 0xE00FF018) >0x0D TIF> >0x21 TIF>  returns 0x2BA01477 (0062ms, 0596ms total)
T3D88 000:738 JLINK_GetDLLVersion()  returns 49604 (0000ms, 0596ms total)
T3D88 000:738 JLINK_CORE_GetFound()  returns 0xE0000FF (0000ms, 0596ms total)
T3D88 000:738 JLINK_GetDebugInfo(0x100) -- Value=0xE00FF003  returns 0x00 (0000ms, 0596ms total)
T3D88 000:740 JLINK_ReadMem (0xE00FF000, 0x0020 Bytes, ...) -- CPU is running -- CPU_ReadMem(32 bytes @ 0xE00FF000) - Data: 03 F0 F0 FF 03 20 F0 FF 03 30 F0 FF 03 10 F0 FF ...  returns 0x00 (0001ms, 0597ms total)
T3D88 000:741 JLINK_ReadMem (0xE000EFF0, 0x0010 Bytes, ...) -- CPU is running -- CPU_ReadMem(16 bytes @ 0xE000EFF0) - Data: 0D 00 00 00 E0 00 00 00 05 00 00 00 B1 00 00 00  returns 0x00 (0001ms, 0598ms total)
T3D88 000:742 JLINK_ReadMem (0xE000EFD0, 0x0020 Bytes, ...) -- CPU is running -- CPU_ReadMem(32 bytes @ 0xE000EFD0) - Data: 04 00 00 00 00 00 00 00 00 00 00 00 00 00 00 00 ...  returns 0x00 (0001ms, 0599ms total)
T3D88 000:743 JLINK_ReadMem (0xE0001FF0, 0x0010 Bytes, ...) -- CPU is running -- CPU_ReadMem(16 bytes @ 0xE0001FF0) - Data: 0D 00 00 00 E0 00 00 00 05 00 00 00 B1 00 00 00  returns 0x00 (0001ms, 0600ms total)
T3D88 000:744 JLINK_ReadMem (0xE0001FD0, 0x0020 Bytes, ...) -- CPU is running -- CPU_ReadMem(32 bytes @ 0xE0001FD0) - Data: 04 00 00 00 00 00 00 00 00 00 00 00 00 00 00 00 ...  returns 0x00 (0000ms, 0600ms total)
T3D88 000:744 JLINK_ReadMem (0xE0002FF0, 0x0010 Bytes, ...) -- CPU is running -- CPU_ReadMem(16 bytes @ 0xE0002FF0) - Data: 0D 00 00 00 E0 00 00 00 05 00 00 00 B1 00 00 00  returns 0x00 (0001ms, 0601ms total)
T3D88 000:745 JLINK_ReadMem (0xE0002FD0, 0x0020 Bytes, ...) -- CPU is running -- CPU_ReadMem(32 bytes @ 0xE0002FD0) - Data: 04 00 00 00 00 00 00 00 00 00 00 00 00 00 00 00 ...  returns 0x00 (0001ms, 0602ms total)
T3D88 000:746 JLINK_ReadMem (0xE0000FF0, 0x0010 Bytes, ...) -- CPU is running -- CPU_ReadMem(16 bytes @ 0xE0000FF0) - Data: 0D 00 00 00 E0 00 00 00 05 00 00 00 B1 00 00 00  returns 0x00 (0001ms, 0603ms total)
T3D88 000:747 JLINK_ReadMem (0xE0000FD0, 0x0020 Bytes, ...) -- CPU is running -- CPU_ReadMem(32 bytes @ 0xE0000FD0) - Data: 04 00 00 00 00 00 00 00 00 00 00 00 00 00 00 00 ...  returns 0x00 (0002ms, 0605ms total)
T3D88 000:749 JLINK_ReadMem (0xE0040FF0, 0x0010 Bytes, ...) -- CPU is running -- CPU_ReadMem(16 bytes @ 0xE0040FF0) - Data: 0D 00 00 00 90 00 00 00 05 00 00 00 B1 00 00 00  returns 0x00 (0001ms, 0606ms total)
T3D88 000:750 JLINK_ReadMem (0xE0040FD0, 0x0020 Bytes, ...) -- CPU is running -- CPU_ReadMem(32 bytes @ 0xE0040FD0) - Data: 04 00 00 00 00 00 00 00 00 00 00 00 00 00 00 00 ...  returns 0x00 (0001ms, 0607ms total)
T3D88 000:751 JLINK_ReadMem (0xE0041FF0, 0x0010 Bytes, ...) -- CPU is running -- CPU_ReadMem(16 bytes @ 0xE0041FF0) - Data: 0D 00 00 00 90 00 00 00 05 00 00 00 B1 00 00 00  returns 0x00 (0001ms, 0608ms total)
T3D88 000:752 JLINK_ReadMem (0xE0041FD0, 0x0020 Bytes, ...) -- CPU is running -- CPU_ReadMem(32 bytes @ 0xE0041FD0) - Data: 04 00 00 00 00 00 00 00 00 00 00 00 00 00 00 00 ...  returns 0x00 (0001ms, 0609ms total)
T3D88 000:753 JLINK_ReadMemU32(0xE000EF40, 0x0001 Items, ...) -- CPU is running -- CPU_ReadMem(4 bytes @ 0xE000EF40) - Data: 21 00 11 10  returns 0x01 (0001ms, 0610ms total)
T3D88 000:754 JLINK_ReadMemU32(0xE000EF44, 0x0001 Items, ...) -- CPU is running -- CPU_ReadMem(4 bytes @ 0xE000EF44) - Data: 11 00 00 11  returns 0x01 (0000ms, 0610ms total)
T3D88 000:754 JLINK_ReadMemU32(0xE000ED00, 0x0001 Items, ...) -- CPU is running -- CPU_ReadMem(4 bytes @ 0xE000ED00) - Data: 41 C2 0F 41  returns 0x01 (0001ms, 0611ms total)
T3D88 000:755 JLINK_SetResetType(JLINKARM_RESET_TYPE_NORMAL)  returns JLINKARM_RESET_TYPE_NORMAL (0000ms, 0611ms total)
T3D88 000:755 JLINK_Reset() -- CPU is running -- CPU_WriteMem(4 bytes @ 0xE000EDF0) -- CPU is running -- CPU_WriteMem(4 bytes @ 0xE000EDFC) >0x35 TIF> -- CPU is running -- CPU_WriteMem(4 bytes @ 0xE000ED0C) -- CPU is running -- CPU_ReadMem(4 bytes @ 0xE000EDF0) -- CPU is running -- CPU_ReadMem(4 bytes @ 0xE000EDF0) -- CPU is running -- CPU_WriteMem(4 bytes @ 0xE000EDF0) -- CPU is running -- CPU_WriteMem(4 bytes @ 0xE000EDFC) -- CPU is running -- CPU_ReadMem(4 bytes @ 0xE000EDF0)
 -- CPU_WriteMem(4 bytes @ 0xE0002000) -- CPU_ReadMem(4 bytes @ 0xE000EDFC) -- CPU_ReadMem(4 bytes @ 0xE0001000) (0018ms, 0629ms total)
T3D88 000:773 JLINK_Halt()  returns 0x00 (0000ms, 0629ms total)
T3D88 000:773 JLINK_IsHalted()  returns TRUE (0000ms, 0629ms total)
T3D88 000:773 JLINK_ReadMemU32(0xE000EDF0, 0x0001 Items, ...) -- CPU_ReadMem(4 bytes @ 0xE000EDF0) - Data: 03 00 03 00  returns 0x01 (0000ms, 0629ms total)
T3D88 000:773 JLINK_WriteU32(0xE000EDF0, 0xA05F0003) -- CPU_WriteMem(4 bytes @ 0xE000EDF0)  returns 0x00 (0001ms, 0630ms total)
T3D88 000:774 JLINK_WriteU32(0xE000EDFC, 0x01000000) -- CPU_WriteMem(4 bytes @ 0xE000EDFC)  returns 0x00 (0001ms, 0631ms total)
T3D88 000:789 JLINK_GetHWStatus(...)  returns 0x00 (0001ms, 0632ms total)
T3D88 000:805 JLINK_GetNumBPUnits(Type = 0xFFFFFF00)  returns 0x06 (0000ms, 0632ms total)
T3D88 000:805 JLINK_GetNumBPUnits(Type = 0xF0)  returns 0x2000 (0000ms, 0632ms total)
T3D88 000:805 JLINK_GetNumWPUnits()  returns 0x04 (0000ms, 0632ms total)
T3D88 000:819 JLINK_GetSpeed()  returns 0xFA0 (0000ms, 0632ms total)
T3D88 000:830 JLINK_ReadMemU32(0xE000E004, 0x0001 Items, ...) -- CPU_ReadMem(4 bytes @ 0xE000E004) - Data: 02 00 00 00  returns 0x01 (0002ms, 0634ms total)
T3D88 000:832 JLINK_ReadMemU32(0xE000E004, 0x0001 Items, ...) -- CPU_ReadMem(4 bytes @ 0xE000E004) - Data: 02 00 00 00  returns 0x01 (0000ms, 0634ms total)
T3D88 000:832 JLINK_WriteMem(0xE0001000, 0x001C Bytes, ...) - Data: 01 00 00 00 00 00 00 00 00 00 00 00 00 00 00 00 ... -- CPU_WriteMem(28 bytes @ 0xE0001000)  returns 0x1C (0002ms, 0636ms total)
T3D88 000:834 JLINK_ReadMem (0xE0001000, 0x001C Bytes, ...) -- CPU_ReadMem(28 bytes @ 0xE0001000) - Data: 01 00 00 40 00 00 00 00 00 00 00 00 00 00 00 00 ...  returns 0x00 (0001ms, 0637ms total)
T3D88 000:835 JLINK_Halt()  returns 0x00 (0000ms, 0637ms total)
T3D88 000:835 JLINK_IsHalted()  returns TRUE (0000ms, 0637ms total)
T3D88 000:838 JLINK_WriteMem(0x20000000, 0x0180 Bytes, ...) - Data: 00 BE 0A E0 0D 78 2D 06 68 40 08 24 40 00 00 D3 ... -- CPU_WriteMem(384 bytes @ 0x20000000)  returns 0x180 (0005ms, 0642ms total)
T3D88 000:843 JLINK_WriteReg(R0, 0x08000000)  returns 0x00 (0000ms, 0642ms total)
T3D88 000:843 JLINK_WriteReg(R1, 0x00B71B00)  returns 0x00 (0000ms, 0642ms total)
T3D88 000:843 JLINK_WriteReg(R2, 0x00000001)  returns 0x00 (0001ms, 0643ms total)
T3D88 000:844 JLINK_WriteReg(R3, 0x00000000)  returns 0x00 (0000ms, 0643ms total)
T3D88 000:844 JLINK_WriteReg(R4, 0x00000000)  returns 0x00 (0000ms, 0643ms total)
T3D88 000:844 JLINK_WriteReg(R5, 0x00000000)  returns 0x00 (0000ms, 0643ms total)
T3D88 000:844 JLINK_WriteReg(R6, 0x00000000)  returns 0x00 (0000ms, 0643ms total)
T3D88 000:844 JLINK_WriteReg(R7, 0x00000000)  returns 0x00 (0000ms, 0643ms total)
T3D88 000:844 JLINK_WriteReg(R8, 0x00000000)  returns 0x00 (0000ms, 0643ms total)
T3D88 000:844 JLINK_WriteReg(R9, 0x2000017C)  returns 0x00 (0000ms, 0643ms total)
T3D88 000:844 JLINK_WriteReg(R10, 0x00000000)  returns 0x00 (0000ms, 0643ms total)
T3D88 000:844 JLINK_WriteReg(R11, 0x00000000)  returns 0x00 (0000ms, 0643ms total)
T3D88 000:844 JLINK_WriteReg(R12, 0x00000000)  returns 0x00 (0000ms, 0643ms total)
T3D88 000:844 JLINK_WriteReg(R13 (SP), 0x20001000)  returns 0x00 (0000ms, 0643ms total)
T3D88 000:844 JLINK_WriteReg(R14, 0x20000001)  returns 0x00 (0000ms, 0643ms total)
T3D88 000:844 JLINK_WriteReg(R15 (PC), 0x20000054)  returns 0x00 (0000ms, 0643ms total)
T3D88 000:844 JLINK_WriteReg(XPSR, 0x01000000)  returns 0x00 (0000ms, 0643ms total)
T3D88 000:844 JLINK_WriteReg(MSP, 0x20001000)  returns 0x00 (0000ms, 0643ms total)
T3D88 000:844 JLINK_WriteReg(PSP, 0x20001000)  returns 0x00 (0000ms, 0643ms total)
T3D88 000:844 JLINK_WriteReg(CFBP, 0x00000000)  returns 0x00 (0000ms, 0643ms total)
T3D88 000:844 JLINK_SetBPEx(Addr = 0x20000000, Type = 0xFFFFFFF2) -- CPU_ReadMem(2 bytes @ 0x20000000)  returns 0x00000001 (0000ms, 0643ms total)
T3D88 000:844 JLINK_Go() -- CPU_WriteMem(2 bytes @ 0x20000000) -- CPU_WriteMem(4 bytes @ 0xE0002008) -- CPU_WriteMem(4 bytes @ 0xE000200C) -- CPU_WriteMem(4 bytes @ 0xE0002010) -- CPU_WriteMem(4 bytes @ 0xE0002014) -- CPU_WriteMem(4 bytes @ 0xE0002018) -- CPU_WriteMem(4 bytes @ 0xE000201C) -- CPU_WriteMem(4 bytes @ 0xE0001004) (0006ms, 0649ms total)
T3D88 000:850 JLINK_IsHalted() -- CPU_ReadMem(2 bytes @ 0x20000000)  returns TRUE (0004ms, 0653ms total)
T3D88 000:854 JLINK_ReadReg(R15 (PC))  returns 0x20000000 (0000ms, 0649ms total)
T3D88 000:854 JLINK_ClrBPEx(BPHandle = 0x00000001)  returns 0x00 (0000ms, 0649ms total)
T3D88 000:854 JLINK_ReadReg(R0)  returns 0x00000000 (0000ms, 0649ms total)
T3D88 000:854 JLINK_WriteReg(R0, 0x08000000)  returns 0x00 (0000ms, 0649ms total)
T3D88 000:854 JLINK_WriteReg(R1, 0x00004000)  returns 0x00 (0000ms, 0649ms total)
T3D88 000:854 JLINK_WriteReg(R2, 0x000000FF)  returns 0x00 (0000ms, 0649ms total)
T3D88 000:854 JLINK_WriteReg(R3, 0x00000000)  returns 0x00 (0000ms, 0649ms total)
T3D88 000:854 JLINK_WriteReg(R4, 0x00000000)  returns 0x00 (0000ms, 0649ms total)
T3D88 000:854 JLINK_WriteReg(R5, 0x00000000)  returns 0x00 (0000ms, 0649ms total)
T3D88 000:854 JLINK_WriteReg(R6, 0x00000000)  returns 0x00 (0000ms, 0649ms total)
T3D88 000:854 JLINK_WriteReg(R7, 0x00000000)  returns 0x00 (0000ms, 0649ms total)
T3D88 000:854 JLINK_WriteReg(R8, 0x00000000)  returns 0x00 (0000ms, 0649ms total)
T3D88 000:854 JLINK_WriteReg(R9, 0x2000017C)  returns 0x00 (0000ms, 0649ms total)
T3D88 000:854 JLINK_WriteReg(R10, 0x00000000)  returns 0x00 (0000ms, 0649ms total)
T3D88 000:854 JLINK_WriteReg(R11, 0x00000000)  returns 0x00 (0000ms, 0649ms total)
T3D88 000:854 JLINK_WriteReg(R12, 0x00000000)  returns 0x00 (0000ms, 0649ms total)
T3D88 000:854 JLINK_WriteReg(R13 (SP), 0x20001000)  returns 0x00 (0001ms, 0650ms total)
T3D88 000:855 JLINK_WriteReg(R14, 0x20000001)  returns 0x00 (0000ms, 0650ms total)
T3D88 000:855 JLINK_WriteReg(R15 (PC), 0x20000020)  returns 0x00 (0000ms, 0650ms total)
T3D88 000:855 JLINK_WriteReg(XPSR, 0x01000000)  returns 0x00 (0000ms, 0650ms total)
T3D88 000:855 JLINK_WriteReg(MSP, 0x20001000)  returns 0x00 (0000ms, 0650ms total)
T3D88 000:855 JLINK_WriteReg(PSP, 0x20001000)  returns 0x00 (0000ms, 0650ms total)
T3D88 000:855 JLINK_WriteReg(CFBP, 0x00000000)  returns 0x00 (0000ms, 0650ms total)
T3D88 000:855 JLINK_SetBPEx(Addr = 0x20000000, Type = 0xFFFFFFF2)  returns 0x00000002 (0000ms, 0650ms total)
T3D88 000:855 JLINK_Go() (0001ms, 0651ms total)
T3D88 000:856 JLINK_IsHalted() -- CPU_ReadMem(2 bytes @ 0x20000000)  returns TRUE (0004ms, 0655ms total)
T3D88 000:860 JLINK_ReadReg(R15 (PC))  returns 0x20000000 (0000ms, 0651ms total)
T3D88 000:860 JLINK_ClrBPEx(BPHandle = 0x00000002)  returns 0x00 (0000ms, 0651ms total)
T3D88 000:860 JLINK_ReadReg(R0)  returns 0x00000001 (0000ms, 0651ms total)
T3D88 000:860 JLINK_WriteReg(R0, 0x08000000)  returns 0x00 (0000ms, 0651ms total)
T3D88 000:860 JLINK_WriteReg(R1, 0x00004000)  returns 0x00 (0000ms, 0651ms total)
T3D88 000:860 JLINK_WriteReg(R2, 0x000000FF)  returns 0x00 (0000ms, 0651ms total)
T3D88 000:860 JLINK_WriteReg(R3, 0x00000000)  returns 0x00 (0000ms, 0651ms total)
T3D88 000:860 JLINK_WriteReg(R4, 0x00000000)  returns 0x00 (0000ms, 0651ms total)
T3D88 000:860 JLINK_WriteReg(R5, 0x00000000)  returns 0x00 (0000ms, 0651ms total)
T3D88 000:860 JLINK_WriteReg(R6, 0x00000000)  returns 0x00 (0000ms, 0651ms total)
T3D88 000:860 JLINK_WriteReg(R7, 0x00000000)  returns 0x00 (0000ms, 0651ms total)
T3D88 000:860 JLINK_WriteReg(R8, 0x00000000)  returns 0x00 (0000ms, 0651ms total)
T3D88 000:860 JLINK_WriteReg(R9, 0x2000017C)  returns 0x00 (0000ms, 0651ms total)
T3D88 000:860 JLINK_WriteReg(R10, 0x00000000)  returns 0x00 (0000ms, 0651ms total)
T3D88 000:860 JLINK_WriteReg(R11, 0x00000000)  returns 0x00 (0000ms, 0651ms total)
T3D88 000:860 JLINK_WriteReg(R12, 0x00000000)  returns 0x00 (0000ms, 0651ms total)
T3D88 000:860 JLINK_WriteReg(R13 (SP), 0x20001000)  returns 0x00 (0000ms, 0651ms total)
T3D88 000:860 JLINK_WriteReg(R14, 0x20000001)  returns 0x00 (0000ms, 0651ms total)
T3D88 000:860 JLINK_WriteReg(R15 (PC), 0x200000BC)  returns 0x00 (0000ms, 0651ms total)
T3D88 000:860 JLINK_WriteReg(XPSR, 0x01000000)  returns 0x00 (0000ms, 0651ms total)
T3D88 000:860 JLINK_WriteReg(MSP, 0x20001000)  returns 0x00 (0000ms, 0651ms total)
T3D88 000:860 JLINK_WriteReg(PSP, 0x20001000)  returns 0x00 (0000ms, 0651ms total)
T3D88 000:860 JLINK_WriteReg(CFBP, 0x00000000)  returns 0x00 (0000ms, 0651ms total)
T3D88 000:860 JLINK_SetBPEx(Addr = 0x20000000, Type = 0xFFFFFFF2)  returns 0x00000003 (0000ms, 0651ms total)
T3D88 000:860 JLINK_Go() (0002ms, 0653ms total)
T3D88 000:862 JLINK_IsHalted()  returns FALSE (0000ms, 0653ms total)
T3D88 000:988 JLINK_IsHalted()  returns FALSE (0001ms, 0654ms total)
T3D88 000:991 JLINK_IsHalted()  returns FALSE (0000ms, 0653ms total)
T3D88 000:993 JLINK_IsHalted()  returns FALSE (0000ms, 0653ms total)
T3D88 000:995 JLINK_IsHalted()  returns FALSE (0000ms, 0653ms total)
T3D88 000:998 JLINK_IsHalted()  returns FALSE (0000ms, 0653ms total)
T3D88 001:004 JLINK_IsHalted()  returns FALSE (0000ms, 0653ms total)
T3D88 001:006 JLINK_IsHalted()  returns FALSE (0000ms, 0653ms total)
T3D88 001:008 JLINK_IsHalted()  returns FALSE (0000ms, 0653ms total)
T3D88 001:010 JLINK_IsHalted()  returns FALSE (0000ms, 0653ms total)
T3D88 001:012 JLINK_IsHalted()  returns FALSE (0000ms, 0653ms total)
T3D88 001:044 JLINK_IsHalted()  returns FALSE (0000ms, 0653ms total)
T3D88 001:051 JLINK_IsHalted()  returns FALSE (0000ms, 0653ms total)
T3D88 001:053 JLINK_IsHalted()  returns FALSE (0001ms, 0654ms total)
T3D88 001:056 JLINK_IsHalted()  returns FALSE (0000ms, 0653ms total)
T3D88 001:058 JLINK_IsHalted()  returns FALSE (0000ms, 0653ms total)
T3D88 001:060 JLINK_IsHalted()  returns FALSE (0000ms, 0653ms total)
T3D88 001:067 JLINK_IsHalted()  returns FALSE (0001ms, 0654ms total)
T3D88 001:070 JLINK_IsHalted()  returns FALSE (0000ms, 0653ms total)
T3D88 001:072 JLINK_IsHalted()  returns FALSE (0001ms, 0654ms total)
T3D88 001:075 JLINK_IsHalted()  returns FALSE (0000ms, 0653ms total)
T3D88 001:080 JLINK_IsHalted()  returns FALSE (0001ms, 0654ms total)
T3D88 001:083 JLINK_IsHalted()  returns FALSE (0000ms, 0653ms total)
T3D88 001:086 JLINK_IsHalted()  returns FALSE (0000ms, 0653ms total)
T3D88 001:088 JLINK_IsHalted()  returns FALSE (0000ms, 0653ms total)
T3D88 001:090 JLINK_IsHalted()  returns FALSE (0000ms, 0653ms total)
T3D88 001:097 JLINK_IsHalted()  returns FALSE (0000ms, 0653ms total)
T3D88 001:101 JLINK_IsHalted()  returns FALSE (0000ms, 0653ms total)
T3D88 001:103 JLINK_IsHalted()  returns FALSE (0000ms, 0653ms total)
T3D88 001:105 JLINK_IsHalted()  returns FALSE (0000ms, 0653ms total)
T3D88 001:112 JLINK_IsHalted()  returns FALSE (0000ms, 0653ms total)
T3D88 001:116 JLINK_IsHalted()  returns FALSE (0000ms, 0653ms total)
T3D88 001:118 JLINK_IsHalted()  returns FALSE (0000ms, 0653ms total)
T3D88 001:120 JLINK_IsHalted()  returns FALSE (0000ms, 0653ms total)
T3D88 001:122 JLINK_IsHalted()  returns FALSE (0000ms, 0653ms total)
T3D88 001:154 JLINK_IsHalted()  returns FALSE (0001ms, 0654ms total)
T3D88 001:161 JLINK_IsHalted()  returns FALSE (0000ms, 0653ms total)
T3D88 001:163 JLINK_IsHalted()  returns FALSE (0000ms, 0653ms total)
T3D88 001:166 JLINK_IsHalted()  returns FALSE (0000ms, 0653ms total)
T3D88 001:176 JLINK_IsHalted()  returns FALSE (0000ms, 0653ms total)
T3D88 001:178 JLINK_IsHalted()  returns FALSE (0000ms, 0653ms total)
T3D88 001:179 JLINK_IsHalted()  returns FALSE (0000ms, 0653ms total)
T3D88 001:185 JLINK_IsHalted()  returns FALSE (0000ms, 0653ms total)
T3D88 001:191 JLINK_IsHalted()  returns FALSE (0000ms, 0653ms total)
T3D88 001:193 JLINK_IsHalted()  returns FALSE (0000ms, 0653ms total)
T3D88 001:197 JLINK_IsHalted()  returns FALSE (0000ms, 0653ms total)
T3D88 001:199 JLINK_IsHalted()  returns FALSE (0000ms, 0653ms total)
T3D88 001:201 JLINK_IsHalted()  returns FALSE (0000ms, 0653ms total)
T3D88 001:207 JLINK_IsHalted()  returns FALSE (0001ms, 0654ms total)
T3D88 001:210 JLINK_IsHalted()  returns FALSE (0001ms, 0654ms total)
T3D88 001:215 JLINK_IsHalted()  returns FALSE (0000ms, 0653ms total)
T3D88 001:216 JLINK_IsHalted() -- CPU_ReadMem(2 bytes @ 0x20000000)  returns TRUE (0004ms, 0657ms total)
T3D88 001:220 JLINK_ReadReg(R15 (PC))  returns 0x20000000 (0000ms, 0653ms total)
T3D88 001:220 JLINK_ClrBPEx(BPHandle = 0x00000003)  returns 0x00 (0000ms, 0653ms total)
T3D88 001:220 JLINK_ReadReg(R0)  returns 0x00000000 (0000ms, 0653ms total)
T3D88 001:221 JLINK_WriteReg(R0, 0x08004000)  returns 0x00 (0000ms, 0653ms total)
T3D88 001:221 JLINK_WriteReg(R1, 0x00004000)  returns 0x00 (0000ms, 0653ms total)
T3D88 001:221 JLINK_WriteReg(R2, 0x000000FF)  returns 0x00 (0000ms, 0653ms total)
T3D88 001:221 JLINK_WriteReg(R3, 0x00000000)  returns 0x00 (0000ms, 0653ms total)
T3D88 001:221 JLINK_WriteReg(R4, 0x00000000)  returns 0x00 (0000ms, 0653ms total)
T3D88 001:221 JLINK_WriteReg(R5, 0x00000000)  returns 0x00 (0000ms, 0653ms total)
T3D88 001:221 JLINK_WriteReg(R6, 0x00000000)  returns 0x00 (0000ms, 0653ms total)
T3D88 001:221 JLINK_WriteReg(R7, 0x00000000)  returns 0x00 (0000ms, 0653ms total)
T3D88 001:221 JLINK_WriteReg(R8, 0x00000000)  returns 0x00 (0000ms, 0653ms total)
T3D88 001:221 JLINK_WriteReg(R9, 0x2000017C)  returns 0x00 (0000ms, 0653ms total)
T3D88 001:221 JLINK_WriteReg(R10, 0x00000000)  returns 0x00 (0000ms, 0653ms total)
T3D88 001:221 JLINK_WriteReg(R11, 0x00000000)  returns 0x00 (0000ms, 0653ms total)
T3D88 001:221 JLINK_WriteReg(R12, 0x00000000)  returns 0x00 (0000ms, 0653ms total)
T3D88 001:221 JLINK_WriteReg(R13 (SP), 0x20001000)  returns 0x00 (0000ms, 0653ms total)
T3D88 001:221 JLINK_WriteReg(R14, 0x20000001)  returns 0x00 (0000ms, 0653ms total)
T3D88 001:221 JLINK_WriteReg(R15 (PC), 0x20000020)  returns 0x00 (0000ms, 0653ms total)
T3D88 001:221 JLINK_WriteReg(XPSR, 0x01000000)  returns 0x00 (0000ms, 0653ms total)
T3D88 001:221 JLINK_WriteReg(MSP, 0x20001000)  returns 0x00 (0000ms, 0653ms total)
T3D88 001:221 JLINK_WriteReg(PSP, 0x20001000)  returns 0x00 (0000ms, 0653ms total)
T3D88 001:221 JLINK_WriteReg(CFBP, 0x00000000)  returns 0x00 (0000ms, 0653ms total)
T3D88 001:221 JLINK_SetBPEx(Addr = 0x20000000, Type = 0xFFFFFFF2)  returns 0x00000004 (0000ms, 0653ms total)
T3D88 001:221 JLINK_Go() (0002ms, 0655ms total)
T3D88 001:223 JLINK_IsHalted() -- CPU_ReadMem(2 bytes @ 0x20000000)  returns TRUE (0004ms, 0659ms total)
T3D88 001:227 JLINK_ReadReg(R15 (PC))  returns 0x20000000 (0000ms, 0655ms total)
T3D88 001:227 JLINK_ClrBPEx(BPHandle = 0x00000004)  returns 0x00 (0000ms, 0655ms total)
T3D88 001:227 JLINK_ReadReg(R0)  returns 0x00000001 (0000ms, 0655ms total)
T3D88 001:227 JLINK_WriteReg(R0, 0x08004000)  returns 0x00 (0000ms, 0655ms total)
T3D88 001:227 JLINK_WriteReg(R1, 0x00004000)  returns 0x00 (0000ms, 0655ms total)
T3D88 001:227 JLINK_WriteReg(R2, 0x000000FF)  returns 0x00 (0000ms, 0655ms total)
T3D88 001:227 JLINK_WriteReg(R3, 0x00000000)  returns 0x00 (0000ms, 0655ms total)
T3D88 001:227 JLINK_WriteReg(R4, 0x00000000)  returns 0x00 (0000ms, 0655ms total)
T3D88 001:227 JLINK_WriteReg(R5, 0x00000000)  returns 0x00 (0000ms, 0655ms total)
T3D88 001:227 JLINK_WriteReg(R6, 0x00000000)  returns 0x00 (0000ms, 0655ms total)
T3D88 001:227 JLINK_WriteReg(R7, 0x00000000)  returns 0x00 (0000ms, 0655ms total)
T3D88 001:227 JLINK_WriteReg(R8, 0x00000000)  returns 0x00 (0000ms, 0655ms total)
T3D88 001:227 JLINK_WriteReg(R9, 0x2000017C)  returns 0x00 (0000ms, 0655ms total)
T3D88 001:227 JLINK_WriteReg(R10, 0x00000000)  returns 0x00 (0000ms, 0655ms total)
T3D88 001:227 JLINK_WriteReg(R11, 0x00000000)  returns 0x00 (0000ms, 0655ms total)
T3D88 001:227 JLINK_WriteReg(R12, 0x00000000)  returns 0x00 (0000ms, 0655ms total)
T3D88 001:227 JLINK_WriteReg(R13 (SP), 0x20001000)  returns 0x00 (0000ms, 0655ms total)
T3D88 001:227 JLINK_WriteReg(R14, 0x20000001)  returns 0x00 (0000ms, 0655ms total)
T3D88 001:227 JLINK_WriteReg(R15 (PC), 0x200000BC)  returns 0x00 (0000ms, 0655ms total)
T3D88 001:227 JLINK_WriteReg(XPSR, 0x01000000)  returns 0x00 (0000ms, 0655ms total)
T3D88 001:227 JLINK_WriteReg(MSP, 0x20001000)  returns 0x00 (0000ms, 0655ms total)
T3D88 001:227 JLINK_WriteReg(PSP, 0x20001000)  returns 0x00 (0000ms, 0655ms total)
T3D88 001:227 JLINK_WriteReg(CFBP, 0x00000000)  returns 0x00 (0000ms, 0655ms total)
T3D88 001:227 JLINK_SetBPEx(Addr = 0x20000000, Type = 0xFFFFFFF2)  returns 0x00000005 (0000ms, 0655ms total)
T3D88 001:227 JLINK_Go() (0001ms, 0656ms total)
T3D88 001:228 JLINK_IsHalted()  returns FALSE (0000ms, 0656ms total)
T3D88 001:268 JLINK_IsHalted()  returns FALSE (0000ms, 0656ms total)
T3D88 001:271 JLINK_IsHalted()  returns FALSE (0000ms, 0656ms total)
T3D88 001:275 JLINK_IsHalted()  returns FALSE (0001ms, 0657ms total)
T3D88 001:278 JLINK_IsHalted()  returns FALSE (0000ms, 0656ms total)
T3D88 001:288 JLINK_IsHalted()  returns FALSE (0000ms, 0656ms total)
T3D88 001:290 JLINK_IsHalted()  returns FALSE (0001ms, 0657ms total)
T3D88 001:293 JLINK_IsHalted()  returns FALSE (0000ms, 0656ms total)
T3D88 001:303 JLINK_IsHalted()  returns FALSE (0000ms, 0656ms total)
T3D88 001:305 JLINK_IsHalted()  returns FALSE (0000ms, 0656ms total)
T3D88 001:307 JLINK_IsHalted()  returns FALSE (0000ms, 0656ms total)
T3D88 001:308 JLINK_IsHalted()  returns FALSE (0001ms, 0657ms total)
T3D88 001:311 JLINK_IsHalted()  returns FALSE (0000ms, 0656ms total)
T3D88 001:319 JLINK_IsHalted()  returns FALSE (0001ms, 0657ms total)
T3D88 001:321 JLINK_IsHalted()  returns FALSE (0000ms, 0656ms total)
T3D88 001:323 JLINK_IsHalted()  returns FALSE (0000ms, 0656ms total)
T3D88 001:325 JLINK_IsHalted()  returns FALSE (0000ms, 0656ms total)
T3D88 001:334 JLINK_IsHalted()  returns FALSE (0000ms, 0656ms total)
T3D88 001:336 JLINK_IsHalted()  returns FALSE (0000ms, 0656ms total)
T3D88 001:338 JLINK_IsHalted()  returns FALSE (0000ms, 0656ms total)
T3D88 001:342 JLINK_IsHalted()  returns FALSE (0000ms, 0656ms total)
T3D88 001:366 JLINK_IsHalted()  returns FALSE (0000ms, 0656ms total)
T3D88 001:368 JLINK_IsHalted()  returns FALSE (0001ms, 0657ms total)
T3D88 001:372 JLINK_IsHalted()  returns FALSE (0000ms, 0656ms total)
T3D88 001:378 JLINK_IsHalted()  returns FALSE (0000ms, 0656ms total)
T3D88 001:380 JLINK_IsHalted()  returns FALSE (0000ms, 0656ms total)
T3D88 001:382 JLINK_IsHalted()  returns FALSE (0000ms, 0656ms total)
T3D88 001:386 JLINK_IsHalted()  returns FALSE (0000ms, 0656ms total)
T3D88 001:388 JLINK_IsHalted()  returns FALSE (0000ms, 0656ms total)
T3D88 001:394 JLINK_IsHalted()  returns FALSE (0000ms, 0656ms total)
T3D88 001:396 JLINK_IsHalted()  returns FALSE (0001ms, 0657ms total)
T3D88 001:491 JLINK_IsHalted()  returns FALSE (0001ms, 0657ms total)
T3D88 001:493 JLINK_IsHalted()  returns FALSE (0000ms, 0656ms total)
T3D88 001:495 JLINK_IsHalted()  returns FALSE (0000ms, 0656ms total)
T3D88 001:497 JLINK_IsHalted()  returns FALSE (0000ms, 0656ms total)
T3D88 001:499 JLINK_IsHalted()  returns FALSE (0000ms, 0656ms total)
T3D88 001:507 JLINK_IsHalted()  returns FALSE (0000ms, 0656ms total)
T3D88 001:509 JLINK_IsHalted()  returns FALSE (0000ms, 0656ms total)
T3D88 001:511 JLINK_IsHalted()  returns FALSE (0000ms, 0656ms total)
T3D88 001:513 JLINK_IsHalted()  returns FALSE (0000ms, 0656ms total)
T3D88 001:515 JLINK_IsHalted()  returns FALSE (0000ms, 0656ms total)
T3D88 001:525 JLINK_IsHalted()  returns FALSE (0000ms, 0656ms total)
T3D88 001:527 JLINK_IsHalted()  returns FALSE (0000ms, 0656ms total)
T3D88 001:529 JLINK_IsHalted()  returns FALSE (0000ms, 0656ms total)
T3D88 001:531 JLINK_IsHalted()  returns FALSE (0000ms, 0656ms total)
T3D88 001:537 JLINK_IsHalted()  returns FALSE (0000ms, 0656ms total)
T3D88 001:538 JLINK_IsHalted()  returns FALSE (0000ms, 0656ms total)
T3D88 001:540 JLINK_IsHalted()  returns FALSE (0001ms, 0657ms total)
T3D88 001:544 JLINK_IsHalted()  returns FALSE (0000ms, 0656ms total)
T3D88 001:546 JLINK_IsHalted()  returns FALSE (0000ms, 0656ms total)
T3D88 001:555 JLINK_IsHalted()  returns FALSE (0000ms, 0656ms total)
T3D88 001:559 JLINK_IsHalted()  returns FALSE (0000ms, 0656ms total)
T3D88 001:561 JLINK_IsHalted()  returns FALSE (0000ms, 0656ms total)
T3D88 001:587 JLINK_IsHalted()  returns FALSE (0001ms, 0657ms total)
T3D88 001:589 JLINK_IsHalted()  returns FALSE (0001ms, 0657ms total)
T3D88 001:591 JLINK_IsHalted()  returns FALSE (0000ms, 0656ms total)
T3D88 001:593 JLINK_IsHalted()  returns FALSE (0000ms, 0656ms total)
T3D88 001:596 JLINK_IsHalted()  returns FALSE (0000ms, 0656ms total)
T3D88 001:598 JLINK_IsHalted()  returns FALSE (0000ms, 0656ms total)
T3D88 001:600 JLINK_IsHalted() -- CPU_ReadMem(2 bytes @ 0x20000000)  returns TRUE (0004ms, 0660ms total)
T3D88 001:604 JLINK_ReadReg(R15 (PC))  returns 0x20000000 (0000ms, 0656ms total)
T3D88 001:604 JLINK_ClrBPEx(BPHandle = 0x00000005)  returns 0x00 (0000ms, 0656ms total)
T3D88 001:604 JLINK_ReadReg(R0)  returns 0x00000000 (0000ms, 0656ms total)
T3D88 001:604 JLINK_WriteReg(R0, 0x00000001)  returns 0x00 (0000ms, 0656ms total)
T3D88 001:604 JLINK_WriteReg(R1, 0x00004000)  returns 0x00 (0000ms, 0656ms total)
T3D88 001:604 JLINK_WriteReg(R2, 0x000000FF)  returns 0x00 (0000ms, 0656ms total)
T3D88 001:604 JLINK_WriteReg(R3, 0x00000000)  returns 0x00 (0000ms, 0656ms total)
T3D88 001:604 JLINK_WriteReg(R4, 0x00000000)  returns 0x00 (0000ms, 0656ms total)
T3D88 001:604 JLINK_WriteReg(R5, 0x00000000)  returns 0x00 (0000ms, 0656ms total)
T3D88 001:604 JLINK_WriteReg(R6, 0x00000000)  returns 0x00 (0000ms, 0656ms total)
T3D88 001:604 JLINK_WriteReg(R7, 0x00000000)  returns 0x00 (0000ms, 0656ms total)
T3D88 001:604 JLINK_WriteReg(R8, 0x00000000)  returns 0x00 (0000ms, 0656ms total)
T3D88 001:604 JLINK_WriteReg(R9, 0x2000017C)  returns 0x00 (0000ms, 0656ms total)
T3D88 001:604 JLINK_WriteReg(R10, 0x00000000)  returns 0x00 (0000ms, 0656ms total)
T3D88 001:604 JLINK_WriteReg(R11, 0x00000000)  returns 0x00 (0000ms, 0656ms total)
T3D88 001:604 JLINK_WriteReg(R12, 0x00000000)  returns 0x00 (0000ms, 0656ms total)
T3D88 001:604 JLINK_WriteReg(R13 (SP), 0x20001000)  returns 0x00 (0000ms, 0656ms total)
T3D88 001:604 JLINK_WriteReg(R14, 0x20000001)  returns 0x00 (0000ms, 0656ms total)
T3D88 001:604 JLINK_WriteReg(R15 (PC), 0x20000082)  returns 0x00 (0000ms, 0656ms total)
T3D88 001:604 JLINK_WriteReg(XPSR, 0x01000000)  returns 0x00 (0000ms, 0656ms total)
T3D88 001:604 JLINK_WriteReg(MSP, 0x20001000)  returns 0x00 (0000ms, 0656ms total)
T3D88 001:604 JLINK_WriteReg(PSP, 0x20001000)  returns 0x00 (0000ms, 0656ms total)
T3D88 001:604 JLINK_WriteReg(CFBP, 0x00000000)  returns 0x00 (0000ms, 0656ms total)
T3D88 001:604 JLINK_SetBPEx(Addr = 0x20000000, Type = 0xFFFFFFF2)  returns 0x00000006 (0000ms, 0656ms total)
T3D88 001:604 JLINK_Go() (0003ms, 0659ms total)
T3D88 001:607 JLINK_IsHalted() -- CPU_ReadMem(2 bytes @ 0x20000000)  returns TRUE (0004ms, 0663ms total)
T3D88 001:611 JLINK_ReadReg(R15 (PC))  returns 0x20000000 (0000ms, 0659ms total)
T3D88 001:611 JLINK_ClrBPEx(BPHandle = 0x00000006)  returns 0x00 (0000ms, 0659ms total)
T3D88 001:611 JLINK_ReadReg(R0)  returns 0x00000000 (0000ms, 0659ms total)
T3D88 001:674 JLINK_WriteMem(0x20000000, 0x0180 Bytes, ...) - Data: 00 BE 0A E0 0D 78 2D 06 68 40 08 24 40 00 00 D3 ... -- CPU_WriteMem(384 bytes @ 0x20000000)  returns 0x180 (0005ms, 0664ms total)
T3D88 001:679 JLINK_WriteReg(R0, 0x08000000)  returns 0x00 (0000ms, 0664ms total)
T3D88 001:679 JLINK_WriteReg(R1, 0x00B71B00)  returns 0x00 (0000ms, 0664ms total)
T3D88 001:679 JLINK_WriteReg(R2, 0x00000002)  returns 0x00 (0000ms, 0664ms total)
T3D88 001:679 JLINK_WriteReg(R3, 0x00000000)  returns 0x00 (0000ms, 0664ms total)
T3D88 001:679 JLINK_WriteReg(R4, 0x00000000)  returns 0x00 (0000ms, 0664ms total)
T3D88 001:679 JLINK_WriteReg(R5, 0x00000000)  returns 0x00 (0000ms, 0664ms total)
T3D88 001:679 JLINK_WriteReg(R6, 0x00000000)  returns 0x00 (0000ms, 0664ms total)
T3D88 001:679 JLINK_WriteReg(R7, 0x00000000)  returns 0x00 (0000ms, 0664ms total)
T3D88 001:679 JLINK_WriteReg(R8, 0x00000000)  returns 0x00 (0000ms, 0664ms total)
T3D88 001:679 JLINK_WriteReg(R9, 0x2000017C)  returns 0x00 (0000ms, 0664ms total)
T3D88 001:679 JLINK_WriteReg(R10, 0x00000000)  returns 0x00 (0000ms, 0664ms total)
T3D88 001:679 JLINK_WriteReg(R11, 0x00000000)  returns 0x00 (0000ms, 0664ms total)
T3D88 001:679 JLINK_WriteReg(R12, 0x00000000)  returns 0x00 (0000ms, 0664ms total)
T3D88 001:679 JLINK_WriteReg(R13 (SP), 0x20001000)  returns 0x00 (0000ms, 0664ms total)
T3D88 001:679 JLINK_WriteReg(R14, 0x20000001)  returns 0x00 (0000ms, 0664ms total)
T3D88 001:679 JLINK_WriteReg(R15 (PC), 0x20000054)  returns 0x00 (0000ms, 0664ms total)
T3D88 001:679 JLINK_WriteReg(XPSR, 0x01000000)  returns 0x00 (0000ms, 0664ms total)
T3D88 001:679 JLINK_WriteReg(MSP, 0x20001000)  returns 0x00 (0000ms, 0664ms total)
T3D88 001:679 JLINK_WriteReg(PSP, 0x20001000)  returns 0x00 (0000ms, 0664ms total)
T3D88 001:679 JLINK_WriteReg(CFBP, 0x00000000)  returns 0x00 (0000ms, 0664ms total)
T3D88 001:679 JLINK_SetBPEx(Addr = 0x20000000, Type = 0xFFFFFFF2) -- CPU_ReadMem(2 bytes @ 0x20000000)  returns 0x00000007 (0001ms, 0665ms total)
T3D88 001:680 JLINK_Go() -- CPU_WriteMem(2 bytes @ 0x20000000) (0003ms, 0668ms total)
T3D88 001:683 JLINK_IsHalted() -- CPU_ReadMem(2 bytes @ 0x20000000)  returns TRUE (0004ms, 0672ms total)
T3D88 001:687 JLINK_ReadReg(R15 (PC))  returns 0x20000000 (0000ms, 0668ms total)
T3D88 001:687 JLINK_ClrBPEx(BPHandle = 0x00000007)  returns 0x00 (0000ms, 0668ms total)
T3D88 001:687 JLINK_ReadReg(R0)  returns 0x00000000 (0000ms, 0668ms total)
T3D88 001:688 JLINK_WriteMem(0x20000180, 0x0400 Bytes, ...) - Data: E8 48 00 20 1D 03 00 08 25 03 00 08 27 03 00 08 ... -- CPU_WriteMem(1024 bytes @ 0x20000180)  returns 0x400 (0013ms, 0681ms total)
T3D88 001:701 JLINK_WriteReg(R0, 0x08000000)  returns 0x00 (0000ms, 0681ms total)
T3D88 001:701 JLINK_WriteReg(R1, 0x00000400)  returns 0x00 (0000ms, 0681ms total)
T3D88 001:701 JLINK_WriteReg(R2, 0x20000180)  returns 0x00 (0000ms, 0681ms total)
T3D88 001:701 JLINK_WriteReg(R3, 0x00000000)  returns 0x00 (0000ms, 0681ms total)
T3D88 001:701 JLINK_WriteReg(R4, 0x00000000)  returns 0x00 (0000ms, 0681ms total)
T3D88 001:701 JLINK_WriteReg(R5, 0x00000000)  returns 0x00 (0000ms, 0681ms total)
T3D88 001:701 JLINK_WriteReg(R6, 0x00000000)  returns 0x00 (0000ms, 0681ms total)
T3D88 001:701 JLINK_WriteReg(R7, 0x00000000)  returns 0x00 (0000ms, 0681ms total)
T3D88 001:701 JLINK_WriteReg(R8, 0x00000000)  returns 0x00 (0000ms, 0681ms total)
T3D88 001:701 JLINK_WriteReg(R9, 0x2000017C)  returns 0x00 (0000ms, 0681ms total)
T3D88 001:701 JLINK_WriteReg(R10, 0x00000000)  returns 0x00 (0000ms, 0681ms total)
T3D88 001:701 JLINK_WriteReg(R11, 0x00000000)  returns 0x00 (0000ms, 0681ms total)
T3D88 001:701 JLINK_WriteReg(R12, 0x00000000)  returns 0x00 (0000ms, 0681ms total)
T3D88 001:701 JLINK_WriteReg(R13 (SP), 0x20001000)  returns 0x00 (0000ms, 0681ms total)
T3D88 001:701 JLINK_WriteReg(R14, 0x20000001)  returns 0x00 (0000ms, 0681ms total)
T3D88 001:701 JLINK_WriteReg(R15 (PC), 0x20000108)  returns 0x00 (0000ms, 0681ms total)
T3D88 001:701 JLINK_WriteReg(XPSR, 0x01000000)  returns 0x00 (0000ms, 0681ms total)
T3D88 001:701 JLINK_WriteReg(MSP, 0x20001000)  returns 0x00 (0000ms, 0681ms total)
T3D88 001:701 JLINK_WriteReg(PSP, 0x20001000)  returns 0x00 (0000ms, 0681ms total)
T3D88 001:701 JLINK_WriteReg(CFBP, 0x00000000)  returns 0x00 (0000ms, 0681ms total)
T3D88 001:701 JLINK_SetBPEx(Addr = 0x20000000, Type = 0xFFFFFFF2)  returns 0x00000008 (0000ms, 0681ms total)
T3D88 001:701 JLINK_Go() (0002ms, 0683ms total)
T3D88 001:703 JLINK_IsHalted()  returns FALSE (0000ms, 0683ms total)
T3D88 001:732 JLINK_IsHalted() -- CPU_ReadMem(2 bytes @ 0x20000000)  returns TRUE (0004ms, 0687ms total)
T3D88 001:736 JLINK_ReadReg(R15 (PC))  returns 0x20000000 (0000ms, 0683ms total)
T3D88 001:736 JLINK_ClrBPEx(BPHandle = 0x00000008)  returns 0x00 (0000ms, 0683ms total)
T3D88 001:736 JLINK_ReadReg(R0)  returns 0x00000000 (0000ms, 0683ms total)
T3D88 001:736 JLINK_WriteMem(0x20000180, 0x0400 Bytes, ...) - Data: 70 BD 00 2C 18 BF AC 42 3C BF 20 46 64 68 F8 D3 ... -- CPU_WriteMem(1024 bytes @ 0x20000180)  returns 0x400 (0014ms, 0697ms total)
T3D88 001:750 JLINK_WriteReg(R0, 0x08000400)  returns 0x00 (0000ms, 0697ms total)
T3D88 001:750 JLINK_WriteReg(R1, 0x00000400)  returns 0x00 (0000ms, 0697ms total)
T3D88 001:750 JLINK_WriteReg(R2, 0x20000180)  returns 0x00 (0000ms, 0697ms total)
T3D88 001:750 JLINK_WriteReg(R3, 0x00000000)  returns 0x00 (0000ms, 0697ms total)
T3D88 001:750 JLINK_WriteReg(R4, 0x00000000)  returns 0x00 (0000ms, 0697ms total)
T3D88 001:750 JLINK_WriteReg(R5, 0x00000000)  returns 0x00 (0000ms, 0697ms total)
T3D88 001:750 JLINK_WriteReg(R6, 0x00000000)  returns 0x00 (0000ms, 0697ms total)
T3D88 001:750 JLINK_WriteReg(R7, 0x00000000)  returns 0x00 (0001ms, 0698ms total)
T3D88 001:751 JLINK_WriteReg(R8, 0x00000000)  returns 0x00 (0000ms, 0698ms total)
T3D88 001:751 JLINK_WriteReg(R9, 0x2000017C)  returns 0x00 (0000ms, 0698ms total)
T3D88 001:751 JLINK_WriteReg(R10, 0x00000000)  returns 0x00 (0000ms, 0698ms total)
T3D88 001:751 JLINK_WriteReg(R11, 0x00000000)  returns 0x00 (0000ms, 0698ms total)
T3D88 001:751 JLINK_WriteReg(R12, 0x00000000)  returns 0x00 (0000ms, 0698ms total)
T3D88 001:751 JLINK_WriteReg(R13 (SP), 0x20001000)  returns 0x00 (0000ms, 0698ms total)
T3D88 001:751 JLINK_WriteReg(R14, 0x20000001)  returns 0x00 (0000ms, 0698ms total)
T3D88 001:751 JLINK_WriteReg(R15 (PC), 0x20000108)  returns 0x00 (0000ms, 0698ms total)
T3D88 001:751 JLINK_WriteReg(XPSR, 0x01000000)  returns 0x00 (0000ms, 0698ms total)
T3D88 001:751 JLINK_WriteReg(MSP, 0x20001000)  returns 0x00 (0000ms, 0698ms total)
T3D88 001:751 JLINK_WriteReg(PSP, 0x20001000)  returns 0x00 (0000ms, 0698ms total)
T3D88 001:751 JLINK_WriteReg(CFBP, 0x00000000)  returns 0x00 (0000ms, 0698ms total)
T3D88 001:751 JLINK_SetBPEx(Addr = 0x20000000, Type = 0xFFFFFFF2)  returns 0x00000009 (0000ms, 0698ms total)
T3D88 001:751 JLINK_Go() (0002ms, 0700ms total)
T3D88 001:753 JLINK_IsHalted()  returns FALSE (0000ms, 0700ms total)
T3D88 001:761 JLINK_IsHalted() -- CPU_ReadMem(2 bytes @ 0x20000000)  returns TRUE (0004ms, 0704ms total)
T3D88 001:765 JLINK_ReadReg(R15 (PC))  returns 0x20000000 (0000ms, 0700ms total)
T3D88 001:765 JLINK_ClrBPEx(BPHandle = 0x00000009)  returns 0x00 (0000ms, 0700ms total)
T3D88 001:765 JLINK_ReadReg(R0)  returns 0x00000000 (0000ms, 0700ms total)
T3D88 001:766 JLINK_WriteMem(0x20000180, 0x0400 Bytes, ...) - Data: 00 2C 03 F8 01 4B 03 D0 52 1E F7 D2 00 21 19 70 ... -- CPU_WriteMem(1024 bytes @ 0x20000180)  returns 0x400 (0013ms, 0713ms total)
T3D88 001:779 JLINK_WriteReg(R0, 0x08000800)  returns 0x00 (0000ms, 0713ms total)
T3D88 001:779 JLINK_WriteReg(R1, 0x00000400)  returns 0x00 (0000ms, 0713ms total)
T3D88 001:779 JLINK_WriteReg(R2, 0x20000180)  returns 0x00 (0000ms, 0713ms total)
T3D88 001:779 JLINK_WriteReg(R3, 0x00000000)  returns 0x00 (0000ms, 0713ms total)
T3D88 001:779 JLINK_WriteReg(R4, 0x00000000)  returns 0x00 (0000ms, 0713ms total)
T3D88 001:779 JLINK_WriteReg(R5, 0x00000000)  returns 0x00 (0000ms, 0713ms total)
T3D88 001:779 JLINK_WriteReg(R6, 0x00000000)  returns 0x00 (0000ms, 0713ms total)
T3D88 001:779 JLINK_WriteReg(R7, 0x00000000)  returns 0x00 (0000ms, 0713ms total)
T3D88 001:779 JLINK_WriteReg(R8, 0x00000000)  returns 0x00 (0000ms, 0713ms total)
T3D88 001:779 JLINK_WriteReg(R9, 0x2000017C)  returns 0x00 (0000ms, 0713ms total)
T3D88 001:779 JLINK_WriteReg(R10, 0x00000000)  returns 0x00 (0000ms, 0713ms total)
T3D88 001:779 JLINK_WriteReg(R11, 0x00000000)  returns 0x00 (0000ms, 0713ms total)
T3D88 001:779 JLINK_WriteReg(R12, 0x00000000)  returns 0x00 (0000ms, 0713ms total)
T3D88 001:779 JLINK_WriteReg(R13 (SP), 0x20001000)  returns 0x00 (0000ms, 0713ms total)
T3D88 001:779 JLINK_WriteReg(R14, 0x20000001)  returns 0x00 (0000ms, 0713ms total)
T3D88 001:779 JLINK_WriteReg(R15 (PC), 0x20000108)  returns 0x00 (0000ms, 0713ms total)
T3D88 001:779 JLINK_WriteReg(XPSR, 0x01000000)  returns 0x00 (0000ms, 0713ms total)
T3D88 001:779 JLINK_WriteReg(MSP, 0x20001000)  returns 0x00 (0000ms, 0713ms total)
T3D88 001:779 JLINK_WriteReg(PSP, 0x20001000)  returns 0x00 (0000ms, 0713ms total)
T3D88 001:779 JLINK_WriteReg(CFBP, 0x00000000)  returns 0x00 (0000ms, 0713ms total)
T3D88 001:779 JLINK_SetBPEx(Addr = 0x20000000, Type = 0xFFFFFFF2)  returns 0x0000000A (0000ms, 0713ms total)
T3D88 001:779 JLINK_Go() (0002ms, 0715ms total)
T3D88 001:781 JLINK_IsHalted()  returns FALSE (0001ms, 0716ms total)
T3D88 001:809 JLINK_IsHalted() -- CPU_ReadMem(2 bytes @ 0x20000000)  returns TRUE (0004ms, 0719ms total)
T3D88 001:813 JLINK_ReadReg(R15 (PC))  returns 0x20000000 (0000ms, 0715ms total)
T3D88 001:813 JLINK_ClrBPEx(BPHandle = 0x0000000A)  returns 0x00 (0000ms, 0715ms total)
T3D88 001:813 JLINK_ReadReg(R0)  returns 0x00000000 (0000ms, 0715ms total)
T3D88 001:814 JLINK_WriteMem(0x20000180, 0x0400 Bytes, ...) - Data: CD E9 00 10 10 E0 3A F8 16 10 6A 46 02 A8 00 F0 ... -- CPU_WriteMem(1024 bytes @ 0x20000180)  returns 0x400 (0013ms, 0728ms total)
T3D88 001:827 JLINK_WriteReg(R0, 0x08000C00)  returns 0x00 (0000ms, 0728ms total)
T3D88 001:827 JLINK_WriteReg(R1, 0x00000400)  returns 0x00 (0000ms, 0728ms total)
T3D88 001:827 JLINK_WriteReg(R2, 0x20000180)  returns 0x00 (0000ms, 0728ms total)
T3D88 001:827 JLINK_WriteReg(R3, 0x00000000)  returns 0x00 (0000ms, 0728ms total)
T3D88 001:827 JLINK_WriteReg(R4, 0x00000000)  returns 0x00 (0000ms, 0728ms total)
T3D88 001:827 JLINK_WriteReg(R5, 0x00000000)  returns 0x00 (0000ms, 0728ms total)
T3D88 001:827 JLINK_WriteReg(R6, 0x00000000)  returns 0x00 (0000ms, 0728ms total)
T3D88 001:827 JLINK_WriteReg(R7, 0x00000000)  returns 0x00 (0000ms, 0728ms total)
T3D88 001:827 JLINK_WriteReg(R8, 0x00000000)  returns 0x00 (0000ms, 0728ms total)
T3D88 001:827 JLINK_WriteReg(R9, 0x2000017C)  returns 0x00 (0000ms, 0728ms total)
T3D88 001:827 JLINK_WriteReg(R10, 0x00000000)  returns 0x00 (0000ms, 0728ms total)
T3D88 001:827 JLINK_WriteReg(R11, 0x00000000)  returns 0x00 (0000ms, 0728ms total)
T3D88 001:827 JLINK_WriteReg(R12, 0x00000000)  returns 0x00 (0000ms, 0728ms total)
T3D88 001:827 JLINK_WriteReg(R13 (SP), 0x20001000)  returns 0x00 (0000ms, 0728ms total)
T3D88 001:827 JLINK_WriteReg(R14, 0x20000001)  returns 0x00 (0000ms, 0728ms total)
T3D88 001:827 JLINK_WriteReg(R15 (PC), 0x20000108)  returns 0x00 (0000ms, 0728ms total)
T3D88 001:827 JLINK_WriteReg(XPSR, 0x01000000)  returns 0x00 (0000ms, 0728ms total)
T3D88 001:827 JLINK_WriteReg(MSP, 0x20001000)  returns 0x00 (0000ms, 0728ms total)
T3D88 001:827 JLINK_WriteReg(PSP, 0x20001000)  returns 0x00 (0000ms, 0728ms total)
T3D88 001:827 JLINK_WriteReg(CFBP, 0x00000000)  returns 0x00 (0000ms, 0728ms total)
T3D88 001:827 JLINK_SetBPEx(Addr = 0x20000000, Type = 0xFFFFFFF2)  returns 0x0000000B (0000ms, 0728ms total)
T3D88 001:827 JLINK_Go() (0001ms, 0729ms total)
T3D88 001:828 JLINK_IsHalted()  returns FALSE (0001ms, 0730ms total)
T3D88 001:836 JLINK_IsHalted() -- CPU_ReadMem(2 bytes @ 0x20000000)  returns TRUE (0004ms, 0733ms total)
T3D88 001:840 JLINK_ReadReg(R15 (PC))  returns 0x20000000 (0000ms, 0729ms total)
T3D88 001:840 JLINK_ClrBPEx(BPHandle = 0x0000000B)  returns 0x00 (0000ms, 0729ms total)
T3D88 001:840 JLINK_ReadReg(R0)  returns 0x00000000 (0000ms, 0729ms total)
T3D88 001:841 JLINK_WriteMem(0x20000180, 0x0400 Bytes, ...) - Data: 0A 99 00 F0 B2 FB 8D E8 07 00 A0 F5 00 50 1F 38 ... -- CPU_WriteMem(1024 bytes @ 0x20000180)  returns 0x400 (0013ms, 0742ms total)
T3D88 001:854 JLINK_WriteReg(R0, 0x08001000)  returns 0x00 (0000ms, 0742ms total)
T3D88 001:854 JLINK_WriteReg(R1, 0x00000400)  returns 0x00 (0000ms, 0742ms total)
T3D88 001:854 JLINK_WriteReg(R2, 0x20000180)  returns 0x00 (0000ms, 0742ms total)
T3D88 001:854 JLINK_WriteReg(R3, 0x00000000)  returns 0x00 (0000ms, 0742ms total)
T3D88 001:854 JLINK_WriteReg(R4, 0x00000000)  returns 0x00 (0000ms, 0742ms total)
T3D88 001:854 JLINK_WriteReg(R5, 0x00000000)  returns 0x00 (0000ms, 0742ms total)
T3D88 001:854 JLINK_WriteReg(R6, 0x00000000)  returns 0x00 (0000ms, 0742ms total)
T3D88 001:854 JLINK_WriteReg(R7, 0x00000000)  returns 0x00 (0000ms, 0742ms total)
T3D88 001:854 JLINK_WriteReg(R8, 0x00000000)  returns 0x00 (0000ms, 0742ms total)
T3D88 001:854 JLINK_WriteReg(R9, 0x2000017C)  returns 0x00 (0000ms, 0742ms total)
T3D88 001:854 JLINK_WriteReg(R10, 0x00000000)  returns 0x00 (0000ms, 0742ms total)
T3D88 001:854 JLINK_WriteReg(R11, 0x00000000)  returns 0x00 (0000ms, 0742ms total)
T3D88 001:854 JLINK_WriteReg(R12, 0x00000000)  returns 0x00 (0000ms, 0742ms total)
T3D88 001:854 JLINK_WriteReg(R13 (SP), 0x20001000)  returns 0x00 (0000ms, 0742ms total)
T3D88 001:854 JLINK_WriteReg(R14, 0x20000001)  returns 0x00 (0000ms, 0742ms total)
T3D88 001:854 JLINK_WriteReg(R15 (PC), 0x20000108)  returns 0x00 (0000ms, 0742ms total)
T3D88 001:854 JLINK_WriteReg(XPSR, 0x01000000)  returns 0x00 (0000ms, 0742ms total)
T3D88 001:854 JLINK_WriteReg(MSP, 0x20001000)  returns 0x00 (0000ms, 0742ms total)
T3D88 001:854 JLINK_WriteReg(PSP, 0x20001000)  returns 0x00 (0000ms, 0742ms total)
T3D88 001:854 JLINK_WriteReg(CFBP, 0x00000000)  returns 0x00 (0000ms, 0742ms total)
T3D88 001:854 JLINK_SetBPEx(Addr = 0x20000000, Type = 0xFFFFFFF2)  returns 0x0000000C (0000ms, 0742ms total)
T3D88 001:854 JLINK_Go() (0002ms, 0744ms total)
T3D88 001:856 JLINK_IsHalted()  returns FALSE (0001ms, 0745ms total)
T3D88 001:864 JLINK_IsHalted() -- CPU_ReadMem(2 bytes @ 0x20000000)  returns TRUE (0004ms, 0748ms total)
T3D88 001:868 JLINK_ReadReg(R15 (PC))  returns 0x20000000 (0000ms, 0744ms total)
T3D88 001:868 JLINK_ClrBPEx(BPHandle = 0x0000000C)  returns 0x00 (0000ms, 0744ms total)
T3D88 001:868 JLINK_ReadReg(R0)  returns 0x00000000 (0000ms, 0744ms total)
T3D88 001:868 JLINK_WriteMem(0x20000180, 0x0400 Bytes, ...) - Data: CB F8 00 40 B9 F1 00 0F 06 D0 FF F7 D5 FA 02 21 ... -- CPU_WriteMem(1024 bytes @ 0x20000180)  returns 0x400 (0013ms, 0757ms total)
T3D88 001:881 JLINK_WriteReg(R0, 0x08001400)  returns 0x00 (0000ms, 0757ms total)
T3D88 001:881 JLINK_WriteReg(R1, 0x00000400)  returns 0x00 (0000ms, 0757ms total)
T3D88 001:881 JLINK_WriteReg(R2, 0x20000180)  returns 0x00 (0000ms, 0757ms total)
T3D88 001:881 JLINK_WriteReg(R3, 0x00000000)  returns 0x00 (0000ms, 0757ms total)
T3D88 001:881 JLINK_WriteReg(R4, 0x00000000)  returns 0x00 (0000ms, 0757ms total)
T3D88 001:881 JLINK_WriteReg(R5, 0x00000000)  returns 0x00 (0000ms, 0757ms total)
T3D88 001:881 JLINK_WriteReg(R6, 0x00000000)  returns 0x00 (0000ms, 0757ms total)
T3D88 001:881 JLINK_WriteReg(R7, 0x00000000)  returns 0x00 (0000ms, 0757ms total)
T3D88 001:881 JLINK_WriteReg(R8, 0x00000000)  returns 0x00 (0000ms, 0757ms total)
T3D88 001:881 JLINK_WriteReg(R9, 0x2000017C)  returns 0x00 (0000ms, 0757ms total)
T3D88 001:881 JLINK_WriteReg(R10, 0x00000000)  returns 0x00 (0000ms, 0757ms total)
T3D88 001:881 JLINK_WriteReg(R11, 0x00000000)  returns 0x00 (0000ms, 0757ms total)
T3D88 001:881 JLINK_WriteReg(R12, 0x00000000)  returns 0x00 (0000ms, 0757ms total)
T3D88 001:881 JLINK_WriteReg(R13 (SP), 0x20001000)  returns 0x00 (0000ms, 0757ms total)
T3D88 001:881 JLINK_WriteReg(R14, 0x20000001)  returns 0x00 (0000ms, 0757ms total)
T3D88 001:881 JLINK_WriteReg(R15 (PC), 0x20000108)  returns 0x00 (0000ms, 0757ms total)
T3D88 001:881 JLINK_WriteReg(XPSR, 0x01000000)  returns 0x00 (0000ms, 0757ms total)
T3D88 001:881 JLINK_WriteReg(MSP, 0x20001000)  returns 0x00 (0000ms, 0757ms total)
T3D88 001:881 JLINK_WriteReg(PSP, 0x20001000)  returns 0x00 (0000ms, 0757ms total)
T3D88 001:881 JLINK_WriteReg(CFBP, 0x00000000)  returns 0x00 (0000ms, 0757ms total)
T3D88 001:881 JLINK_SetBPEx(Addr = 0x20000000, Type = 0xFFFFFFF2)  returns 0x0000000D (0000ms, 0757ms total)
T3D88 001:881 JLINK_Go() (0002ms, 0759ms total)
T3D88 001:883 JLINK_IsHalted()  returns FALSE (0001ms, 0760ms total)
T3D88 001:888 JLINK_IsHalted()  returns FALSE (0000ms, 0759ms total)
T3D88 001:910 JLINK_IsHalted() -- CPU_ReadMem(2 bytes @ 0x20000000)  returns TRUE (0004ms, 0763ms total)
T3D88 001:914 JLINK_ReadReg(R15 (PC))  returns 0x20000000 (0000ms, 0759ms total)
T3D88 001:914 JLINK_ClrBPEx(BPHandle = 0x0000000D)  returns 0x00 (0000ms, 0759ms total)
T3D88 001:914 JLINK_ReadReg(R0)  returns 0x00000000 (0000ms, 0759ms total)
T3D88 001:916 JLINK_WriteMem(0x20000180, 0x0400 Bytes, ...) - Data: 06 BF 09 04 4F F0 10 0C 4F F0 00 0C 0B 0E 04 BF ... -- CPU_WriteMem(1024 bytes @ 0x20000180)  returns 0x400 (0013ms, 0772ms total)
T3D88 001:929 JLINK_WriteReg(R0, 0x08001800)  returns 0x00 (0000ms, 0772ms total)
T3D88 001:929 JLINK_WriteReg(R1, 0x00000400)  returns 0x00 (0000ms, 0772ms total)
T3D88 001:929 JLINK_WriteReg(R2, 0x20000180)  returns 0x00 (0000ms, 0772ms total)
T3D88 001:929 JLINK_WriteReg(R3, 0x00000000)  returns 0x00 (0000ms, 0772ms total)
T3D88 001:929 JLINK_WriteReg(R4, 0x00000000)  returns 0x00 (0000ms, 0772ms total)
T3D88 001:929 JLINK_WriteReg(R5, 0x00000000)  returns 0x00 (0000ms, 0772ms total)
T3D88 001:929 JLINK_WriteReg(R6, 0x00000000)  returns 0x00 (0000ms, 0772ms total)
T3D88 001:929 JLINK_WriteReg(R7, 0x00000000)  returns 0x00 (0000ms, 0772ms total)
T3D88 001:929 JLINK_WriteReg(R8, 0x00000000)  returns 0x00 (0000ms, 0772ms total)
T3D88 001:929 JLINK_WriteReg(R9, 0x2000017C)  returns 0x00 (0000ms, 0772ms total)
T3D88 001:929 JLINK_WriteReg(R10, 0x00000000)  returns 0x00 (0000ms, 0772ms total)
T3D88 001:929 JLINK_WriteReg(R11, 0x00000000)  returns 0x00 (0000ms, 0772ms total)
T3D88 001:929 JLINK_WriteReg(R12, 0x00000000)  returns 0x00 (0000ms, 0772ms total)
T3D88 001:929 JLINK_WriteReg(R13 (SP), 0x20001000)  returns 0x00 (0000ms, 0772ms total)
T3D88 001:929 JLINK_WriteReg(R14, 0x20000001)  returns 0x00 (0000ms, 0772ms total)
T3D88 001:929 JLINK_WriteReg(R15 (PC), 0x20000108)  returns 0x00 (0000ms, 0772ms total)
T3D88 001:929 JLINK_WriteReg(XPSR, 0x01000000)  returns 0x00 (0000ms, 0772ms total)
T3D88 001:929 JLINK_WriteReg(MSP, 0x20001000)  returns 0x00 (0000ms, 0772ms total)
T3D88 001:929 JLINK_WriteReg(PSP, 0x20001000)  returns 0x00 (0000ms, 0772ms total)
T3D88 001:929 JLINK_WriteReg(CFBP, 0x00000000)  returns 0x00 (0000ms, 0772ms total)
T3D88 001:929 JLINK_SetBPEx(Addr = 0x20000000, Type = 0xFFFFFFF2)  returns 0x0000000E (0000ms, 0772ms total)
T3D88 001:929 JLINK_Go() (0002ms, 0774ms total)
T3D88 001:932 JLINK_IsHalted()  returns FALSE (0000ms, 0775ms total)
T3D88 001:941 JLINK_IsHalted() -- CPU_ReadMem(2 bytes @ 0x20000000)  returns TRUE (0003ms, 0778ms total)
T3D88 001:944 JLINK_ReadReg(R15 (PC))  returns 0x20000000 (0000ms, 0775ms total)
T3D88 001:944 JLINK_ClrBPEx(BPHandle = 0x0000000E)  returns 0x00 (0000ms, 0775ms total)
T3D88 001:944 JLINK_ReadReg(R0)  returns 0x00000000 (0000ms, 0775ms total)
